
T040C 000:001 SEGGER J-Link V6.16c Log File (0000ms, 0001ms total)
T040C 000:001 DLL Compiled: Jun 16 2017 18:14:49 (0000ms, 0001ms total)
T040C 000:001 Logging started @ 2017-11-28 15:35 (0000ms, 0001ms total)
T040C 000:001 JLINK_SetWarnOutHandler(...) (0000ms, 0001ms total)
T040C 000:001 JLINK_OpenEx(...)
Firmware: J-Link V9 compiled Dec  2 2017 15:35:20
Hardware: V9.20
S/N: 269200585
Feature(s): GDB, RDI, FlashBP, FlashDL, JFlash, RDDIWEBSRV Webserver running on local port 19080 (0015ms, 0016ms total)
T040C 000:001   returns O.K. (0015ms, 0016ms total)
T040C 000:016 JLINK_GetEmuCaps()  returns 0xB9FF7BBF (0000ms, 0016ms total)
T040C 000:016 JLINK_TIF_GetAvailable(...) (0000ms, 0016ms total)
T040C 000:016 JLINK_SetErrorOutHandler(...) (0000ms, 0016ms total)
T040C 000:016 JLINK_ExecCommand("ProjectFile = "D:\armworkspace\W7500P-master\W7500P_FW\Projects\Peripheral_Examples\WeightSensor\coreboard demo v0.2\MDK\JLinkSettings.ini"", ...).   returns 0x00 (0088ms, 0104ms total)
T040C 000:108 JLINK_ExecCommand("Device = Cortex-M0", ...). Device "CORTEX-M0" selected.  returns 0x00 (0003ms, 0107ms total)
T040C 000:111 JLINK_ExecCommand("DisableConnectionTimeout", ...).   returns 0x01 (0000ms, 0107ms total)
T040C 000:111 JLINK_GetHardwareVersion()  returns 0x16760 (0000ms, 0107ms total)
T040C 000:111 JLINK_GetDLLVersion()  returns 61603 (0000ms, 0107ms total)
T040C 000:111 JLINK_GetFirmwareString(...) (0000ms, 0107ms total)
T040C 000:116 JLINK_GetDLLVersion()  returns 61603 (0000ms, 0107ms total)
T040C 000:116 JLINK_GetCompileDateTime() (0000ms, 0107ms total)
T040C 000:119 JLINK_GetFirmwareString(...) (0000ms, 0107ms total)
T040C 000:121 JLINK_GetHardwareVersion()  returns 0x16760 (0000ms, 0107ms total)
T040C 000:128 JLINK_TIF_Select(JLINKARM_TIF_SWD)  returns 0x00 (0002ms, 0109ms total)
T040C 000:130 JLINK_SetSpeed(5000) (0000ms, 0109ms total)
T040C 000:130 JLINK_GetId() >0x10B TIF>Found SW-DP with ID 0x0BB11477 >0x0D TIF> >0x28 TIF> >0x0D TIF> >0x28 TIF> >0x0D TIF> >0x28 TIF> >0x0D TIF> >0x28 TIF> >0x0D TIF> >0x21 TIF> >0x0D TIF> >0x28 TIF>Scanning APs, stopping at first AHB-AP found. >0x0D TIF> >0x28 TIF> >0x0D TIF> >0x21 TIF> >0x0D TIF> >0x21 TIF>AP[0] IDR: 0x04770021 (AHB-AP) >0x0D TIF> >0x28 TIF> >0x0D TIF> >0x21 TIF> >0x0D TIF> >0x21 TIF>AHB-AP ROM: 0xE00FF000 (Base addr. of first ROM table) >0x0D TIF> >0x28 TIF> >0x0D TIF> >0x28 TIF>
 >0x0D TIF> >0x28 TIF> >0x0D TIF> >0x21 TIF> >0x0D TIF> >0x21 TIF> >0x0D TIF> >0x28 TIF> >0x0D TIF> >0x21 TIF> >0x0D TIF> >0x21 TIF>CPUID reg: 0x410CC200. Implementer code: 0x41 (ARM)Found Cortex-M0 r0p0, Little endian. -- CPU_ReadMem(4 bytes @ 0xE000EDF0) -- CPU_WriteMem(4 bytes @ 0xE000EDF0) -- CPU_ReadMem(4 bytes @ 0xE0002000)FPUnit: 4 code (BP) slots and 0 literal slots -- CPU_ReadMem(4 bytes @ 0xE000EDFC) -- CPU_WriteMem(4 bytes @ 0xE000EDFC) -- CPU_ReadMem(4 bytes @ 0xE0001000)
 -- CPU_WriteMem(4 bytes @ 0xE0001000)CoreSight components:ROMTbl[0] @ E00FF000 -- CPU_ReadMem(16 bytes @ 0xE00FF000) -- CPU_ReadMem(16 bytes @ 0xE000EFF0) -- CPU_ReadMem(16 bytes @ 0xE000EFE0)ROMTbl[0][0]: E000E000, CID: B105E00D, PID: 000BB008 SCS -- CPU_ReadMem(16 bytes @ 0xE0001FF0) -- CPU_ReadMem(16 bytes @ 0xE0001FE0)ROMTbl[0][1]: E0001000, CID: B105E00D, PID: 000BB00A DWT -- CPU_ReadMem(16 bytes @ 0xE0002FF0) -- CPU_ReadMem(16 bytes @ 0xE0002FE0)
ROMTbl[0][2]: E0002000, CID: B105E00D, PID: 000BB00B FPB >0x0D TIF> >0x21 TIF>  returns 0x0BB11477 (0039ms, 0148ms total)
T040C 000:169 JLINK_GetDLLVersion()  returns 61603 (0000ms, 0148ms total)
T040C 000:169 JLINK_CORE_GetFound()  returns 0x60000FF (0000ms, 0148ms total)
T040C 000:169 JLINK_GetDebugInfo(0x100 = JLINKARM_ROM_TABLE_ADDR_INDEX) -- Value=0xE00FF000  returns 0x00 (0000ms, 0148ms total)
T040C 000:172 JLINK_GetDebugInfo(0x100 = JLINKARM_ROM_TABLE_ADDR_INDEX) -- Value=0xE00FF000  returns 0x00 (0000ms, 0148ms total)
T040C 000:172 JLINK_GetDebugInfo(0x101 = JLINKARM_DEBUG_INFO_ETM_ADDR_INDEX) -- Value=0x00000000  returns 0x00 (0000ms, 0148ms total)
T040C 000:172 JLINK_ReadMemEx(0xE0041FF0, 0x0010 Bytes, ..., Flags = 0x02000004) -- CPU_ReadMem(16 bytes @ 0xE0041FF0) - Data: 00 00 00 00 00 00 00 00 00 00 00 00 00 00 00 00  returns 0x10 (0001ms, 0149ms total)
T040C 000:173 JLINK_GetDebugInfo(0x102 = JLINKARM_DEBUG_INFO_MTB_ADDR_INDEX) -- Value=0x00000000  returns 0x00 (0000ms, 0149ms total)
T040C 000:173 JLINK_GetDebugInfo(0x103 = JLINKARM_DEBUG_INFO_TPIU_ADDR_INDEX) -- Value=0x00000000  returns 0x00 (0000ms, 0149ms total)
T040C 000:173 JLINK_ReadMemEx(0xE0040FF0, 0x0010 Bytes, ..., Flags = 0x02000004) -- CPU_ReadMem(16 bytes @ 0xE0040FF0) - Data: 00 00 00 00 00 00 00 00 00 00 00 00 00 00 00 00  returns 0x10 (0000ms, 0149ms total)
T040C 000:173 JLINK_GetDebugInfo(0x104 = JLINKARM_DEBUG_INFO_ITM_ADDR_INDEX) -- Value=0xE0000000  returns 0x00 (0000ms, 0149ms total)
T040C 000:173 JLINK_GetDebugInfo(0x105 = JLINKARM_DEBUG_INFO_DWT_ADDR_INDEX) -- Value=0xE0001000  returns 0x00 (0000ms, 0149ms total)
T040C 000:173 JLINK_GetDebugInfo(0x106 = JLINKARM_DEBUG_INFO_FPB_ADDR_INDEX) -- Value=0xE0002000  returns 0x00 (0000ms, 0149ms total)
T040C 000:173 JLINK_GetDebugInfo(0x107 = JLINKARM_DEBUG_INFO_NVIC_ADDR_INDEX) -- Value=0xE000E000  returns 0x00 (0000ms, 0149ms total)
T040C 000:173 JLINK_GetDebugInfo(0x10C = JLINKARM_DEBUG_INFO_DBG_ADDR_INDEX) -- Value=0xE000EDF0  returns 0x00 (0000ms, 0149ms total)
T040C 000:173 JLINK_ReadMemU32(0xE000ED00, 0x0001 Items, ...) -- CPU_ReadMem(4 bytes @ 0xE000ED00) - Data: 00 C2 0C 41  returns 0x01 (0000ms, 0149ms total)
T040C 000:174 JLINK_GetDebugInfo(0x10F = JLINKARM_DEBUG_INFO_HAS_CORTEX_M_SECURITY_EXT_INDEX) -- Value=0x00000000  returns 0x00 (0000ms, 0149ms total)
T040C 000:174 JLINK_SetResetType(JLINKARM_CM3_RESET_TYPE_NORMAL)  returns JLINKARM_CM3_RESET_TYPE_NORMAL (0000ms, 0149ms total)
T040C 000:174 JLINK_Reset() -- CPU is running -- CPU_WriteMem(4 bytes @ 0xE000EDF0) -- CPU is running -- CPU_WriteMem(4 bytes @ 0xE000EDFC) >0x35 TIF>Setting AIRCR.SYSRESETREQ -- CPU is running -- CPU_WriteMem(4 bytes @ 0xE000ED0C) >0x0D TIF> >0x28 TIF> -- CPU_ReadMem(4 bytes @ 0xE000ED0C) -- CPU_ReadMem(4 bytes @ 0xE000EDF0) -- CPU_ReadMem(4 bytes @ 0xE000EDF0) -- CPU_ReadMem(4 bytes @ 0xE000EDF0) -- CPU is running -- CPU_WriteMem(4 bytes @ 0xE000EDF0) -- CPU is running
 -- CPU_WriteMem(4 bytes @ 0xE000EDFC) -- CPU_ReadMem(4 bytes @ 0xE000EDF0) -- CPU_WriteMem(4 bytes @ 0xE0002000) -- CPU_ReadMem(4 bytes @ 0xE000EDFC) -- CPU_ReadMem(4 bytes @ 0xE0001000) -- CPU_WriteMem(4 bytes @ 0xE0001000) (0068ms, 0217ms total)
T040C 000:242 JLINK_Halt()  returns 0x00 (0000ms, 0217ms total)
T040C 000:242 JLINK_ReadMemU32(0xE000EDF0, 0x0001 Items, ...) -- CPU_ReadMem(4 bytes @ 0xE000EDF0) - Data: 03 00 03 00  returns 0x01 (0001ms, 0218ms total)
T040C 000:243 JLINK_WriteU32(0xE000EDF0, 0xA05F0003) -- CPU_WriteMem(4 bytes @ 0xE000EDF0)  returns 0x00 (0000ms, 0218ms total)
T040C 000:243 JLINK_WriteU32(0xE000EDFC, 0x01000000) -- CPU_WriteMem(4 bytes @ 0xE000EDFC)  returns 0x00 (0001ms, 0219ms total)
T040C 000:274 JLINK_GetHWStatus(...)  returns 0x00 (0000ms, 0219ms total)
T040C 000:287 JLINK_GetNumBPUnits(Type = 0xFFFFFF00)  returns 0x04 (0000ms, 0219ms total)
T040C 000:287 JLINK_GetNumBPUnits(Type = 0xF0)  returns 0x2000 (0000ms, 0219ms total)
T040C 000:287 JLINK_GetNumWPUnits()  returns 0x02 (0000ms, 0219ms total)
T040C 000:299 JLINK_GetSpeed()  returns 0xFA0 (0000ms, 0219ms total)
T040C 000:308 JLINK_ReadMemU32(0xE000E004, 0x0001 Items, ...) -- CPU_ReadMem(4 bytes @ 0xE000E004) - Data: 00 00 00 00  returns 0x01 (0000ms, 0219ms total)
T040C 000:308 JLINK_Halt()  returns 0x00 (0000ms, 0219ms total)
T040C 000:308 JLINK_IsHalted()  returns TRUE (0000ms, 0219ms total)
T040C 000:312 JLINK_WriteMem(0x20000000, 0x0088 Bytes, ...) - Data: 00 BE 0A E0 0D 78 2D 06 68 40 08 24 40 00 00 D3 ... -- CPU_WriteMem(136 bytes @ 0x20000000)  returns 0x88 (0002ms, 0221ms total)
T040C 000:315 JLINK_WriteReg(R0, 0x00000000)  returns 0x00 (0000ms, 0221ms total)
T040C 000:315 JLINK_WriteReg(R1, 0x00B71B00)  returns 0x00 (0000ms, 0221ms total)
T040C 000:315 JLINK_WriteReg(R2, 0x00000001)  returns 0x00 (0000ms, 0221ms total)
T040C 000:315 JLINK_WriteReg(R3, 0x00000000)  returns 0x00 (0000ms, 0221ms total)
T040C 000:315 JLINK_WriteReg(R4, 0x00000000)  returns 0x00 (0000ms, 0221ms total)
T040C 000:315 JLINK_WriteReg(R5, 0x00000000)  returns 0x00 (0000ms, 0221ms total)
T040C 000:315 JLINK_WriteReg(R6, 0x00000000)  returns 0x00 (0000ms, 0221ms total)
T040C 000:315 JLINK_WriteReg(R7, 0x00000000)  returns 0x00 (0000ms, 0221ms total)
T040C 000:315 JLINK_WriteReg(R8, 0x00000000)  returns 0x00 (0000ms, 0221ms total)
T040C 000:315 JLINK_WriteReg(R9, 0x20000084)  returns 0x00 (0000ms, 0221ms total)
T040C 000:315 JLINK_WriteReg(R10, 0x00000000)  returns 0x00 (0000ms, 0221ms total)
T040C 000:315 JLINK_WriteReg(R11, 0x00000000)  returns 0x00 (0000ms, 0221ms total)
T040C 000:315 JLINK_WriteReg(R12, 0x00000000)  returns 0x00 (0000ms, 0221ms total)
T040C 000:315 JLINK_WriteReg(R13 (SP), 0x20000800)  returns 0x00 (0000ms, 0221ms total)
T040C 000:315 JLINK_WriteReg(R14, 0x20000001)  returns 0x00 (0000ms, 0221ms total)
T040C 000:315 JLINK_WriteReg(R15 (PC), 0x20000042)  returns 0x00 (0000ms, 0221ms total)
T040C 000:315 JLINK_WriteReg(XPSR, 0x01000000)  returns 0x00 (0000ms, 0221ms total)
T040C 000:315 JLINK_WriteReg(MSP, 0x20000800)  returns 0x00 (0000ms, 0221ms total)
T040C 000:315 JLINK_WriteReg(PSP, 0x20000800)  returns 0x00 (0000ms, 0221ms total)
T040C 000:315 JLINK_WriteReg(CFBP, 0x00000000)  returns 0x00 (0000ms, 0221ms total)
T040C 000:315 JLINK_SetBPEx(Addr = 0x20000000, Type = 0xFFFFFFF2) -- CPU_ReadMem(4 bytes @ 0x20000000) -- CPU_WriteMem(4 bytes @ 0x20000000) -- CPU_ReadMem(4 bytes @ 0x20000000) -- CPU_WriteMem(4 bytes @ 0x20000000) -- CPU_ReadMem(2 bytes @ 0x20000000)  returns 0x00000001 (0002ms, 0223ms total)
T040C 000:317 JLINK_Go() -- CPU_WriteMem(2 bytes @ 0x20000000) -- CPU_ReadMem(4 bytes @ 0xE0001000) -- CPU_WriteMem(4 bytes @ 0xE0001000) -- CPU_WriteMem(4 bytes @ 0xE0002008) -- CPU_WriteMem(4 bytes @ 0xE000200C) -- CPU_WriteMem(4 bytes @ 0xE0002010) -- CPU_WriteMem(4 bytes @ 0xE0002014) -- CPU_WriteMem(4 bytes @ 0xE0001004) (0005ms, 0228ms total)
T040C 000:322 JLINK_IsHalted() -- CPU_ReadMem(2 bytes @ 0x20000000)  returns TRUE (0003ms, 0231ms total)
T040C 000:325 JLINK_ReadReg(R15 (PC))  returns 0x20000000 (0000ms, 0228ms total)
T040C 000:325 JLINK_ClrBPEx(BPHandle = 0x00000001)  returns 0x00 (0000ms, 0228ms total)
T040C 000:325 JLINK_ReadReg(R0)  returns 0x00000000 (0000ms, 0228ms total)
T040C 000:325 JLINK_WriteReg(R0, 0x00000000)  returns 0x00 (0000ms, 0228ms total)
T040C 000:325 JLINK_WriteReg(R1, 0x00B71B00)  returns 0x00 (0000ms, 0228ms total)
T040C 000:325 JLINK_WriteReg(R2, 0x00000001)  returns 0x00 (0000ms, 0228ms total)
T040C 000:325 JLINK_WriteReg(R3, 0x00000000)  returns 0x00 (0000ms, 0228ms total)
T040C 000:325 JLINK_WriteReg(R4, 0x00000000)  returns 0x00 (0000ms, 0228ms total)
T040C 000:325 JLINK_WriteReg(R5, 0x00000000)  returns 0x00 (0000ms, 0228ms total)
T040C 000:325 JLINK_WriteReg(R6, 0x00000000)  returns 0x00 (0000ms, 0228ms total)
T040C 000:325 JLINK_WriteReg(R7, 0x00000000)  returns 0x00 (0000ms, 0228ms total)
T040C 000:325 JLINK_WriteReg(R8, 0x00000000)  returns 0x00 (0000ms, 0228ms total)
T040C 000:325 JLINK_WriteReg(R9, 0x20000084)  returns 0x00 (0000ms, 0228ms total)
T040C 000:325 JLINK_WriteReg(R10, 0x00000000)  returns 0x00 (0000ms, 0228ms total)
T040C 000:325 JLINK_WriteReg(R11, 0x00000000)  returns 0x00 (0000ms, 0228ms total)
T040C 000:325 JLINK_WriteReg(R12, 0x00000000)  returns 0x00 (0000ms, 0228ms total)
T040C 000:325 JLINK_WriteReg(R13 (SP), 0x20000800)  returns 0x00 (0000ms, 0228ms total)
T040C 000:325 JLINK_WriteReg(R14, 0x20000001)  returns 0x00 (0000ms, 0228ms total)
T040C 000:325 JLINK_WriteReg(R15 (PC), 0x2000004A)  returns 0x00 (0000ms, 0228ms total)
T040C 000:325 JLINK_WriteReg(XPSR, 0x01000000)  returns 0x00 (0000ms, 0228ms total)
T040C 000:326 JLINK_WriteReg(MSP, 0x20000800)  returns 0x00 (0000ms, 0229ms total)
T040C 000:326 JLINK_WriteReg(PSP, 0x20000800)  returns 0x00 (0000ms, 0229ms total)
T040C 000:326 JLINK_WriteReg(CFBP, 0x00000000)  returns 0x00 (0000ms, 0229ms total)
T040C 000:326 JLINK_SetBPEx(Addr = 0x20000000, Type = 0xFFFFFFF2)  returns 0x00000002 (0000ms, 0229ms total)
T040C 000:326 JLINK_Go() -- CPU_ReadMem(4 bytes @ 0xE0001000) -- CPU_WriteMem(4 bytes @ 0xE0001000) (0001ms, 0230ms total)
T040C 000:327 JLINK_IsHalted()  returns FALSE (0001ms, 0231ms total)
T040C 000:383 JLINK_IsHalted() -- CPU_ReadMem(2 bytes @ 0x20000000)  returns TRUE (0003ms, 0233ms total)
T040C 000:386 JLINK_ReadReg(R15 (PC))  returns 0x20000000 (0000ms, 0230ms total)
T040C 000:386 JLINK_ClrBPEx(BPHandle = 0x00000002)  returns 0x00 (0000ms, 0230ms total)
T040C 000:386 JLINK_ReadReg(R0)  returns 0x00000000 (0000ms, 0230ms total)
T040C 000:437 JLINK_WriteReg(R0, 0x00000001)  returns 0x00 (0000ms, 0230ms total)
T040C 000:437 JLINK_WriteReg(R1, 0x00B71B00)  returns 0x00 (0000ms, 0230ms total)
T040C 000:437 JLINK_WriteReg(R2, 0x00000001)  returns 0x00 (0000ms, 0230ms total)
T040C 000:437 JLINK_WriteReg(R3, 0x00000000)  returns 0x00 (0000ms, 0230ms total)
T040C 000:437 JLINK_WriteReg(R4, 0x00000000)  returns 0x00 (0000ms, 0230ms total)
T040C 000:437 JLINK_WriteReg(R5, 0x00000000)  returns 0x00 (0000ms, 0230ms total)
T040C 000:437 JLINK_WriteReg(R6, 0x00000000)  returns 0x00 (0000ms, 0230ms total)
T040C 000:437 JLINK_WriteReg(R7, 0x00000000)  returns 0x00 (0000ms, 0230ms total)
T040C 000:437 JLINK_WriteReg(R8, 0x00000000)  returns 0x00 (0000ms, 0230ms total)
T040C 000:437 JLINK_WriteReg(R9, 0x20000084)  returns 0x00 (0000ms, 0230ms total)
T040C 000:437 JLINK_WriteReg(R10, 0x00000000)  returns 0x00 (0000ms, 0230ms total)
T040C 000:437 JLINK_WriteReg(R11, 0x00000000)  returns 0x00 (0000ms, 0230ms total)
T040C 000:437 JLINK_WriteReg(R12, 0x00000000)  returns 0x00 (0000ms, 0230ms total)
T040C 000:437 JLINK_WriteReg(R13 (SP), 0x20000800)  returns 0x00 (0000ms, 0230ms total)
T040C 000:437 JLINK_WriteReg(R14, 0x20000001)  returns 0x00 (0000ms, 0230ms total)
T040C 000:437 JLINK_WriteReg(R15 (PC), 0x20000046)  returns 0x00 (0000ms, 0230ms total)
T040C 000:437 JLINK_WriteReg(XPSR, 0x01000000)  returns 0x00 (0000ms, 0230ms total)
T040C 000:437 JLINK_WriteReg(MSP, 0x20000800)  returns 0x00 (0000ms, 0230ms total)
T040C 000:437 JLINK_WriteReg(PSP, 0x20000800)  returns 0x00 (0000ms, 0230ms total)
T040C 000:437 JLINK_WriteReg(CFBP, 0x00000000)  returns 0x00 (0000ms, 0230ms total)
T040C 000:437 JLINK_SetBPEx(Addr = 0x20000000, Type = 0xFFFFFFF2)  returns 0x00000003 (0000ms, 0230ms total)
T040C 000:437 JLINK_Go() -- CPU_ReadMem(4 bytes @ 0xE0001000) -- CPU_WriteMem(4 bytes @ 0xE0001000) (0003ms, 0233ms total)
T040C 000:440 JLINK_IsHalted() -- CPU_ReadMem(2 bytes @ 0x20000000)  returns TRUE (0004ms, 0237ms total)
T040C 000:444 JLINK_ReadReg(R15 (PC))  returns 0x20000000 (0000ms, 0233ms total)
T040C 000:444 JLINK_ClrBPEx(BPHandle = 0x00000003)  returns 0x00 (0000ms, 0233ms total)
T040C 000:444 JLINK_ReadReg(R0)  returns 0x00000000 (0000ms, 0233ms total)
T040C 000:460 JLINK_WriteMem(0x20000000, 0x0088 Bytes, ...) - Data: 00 BE 0A E0 0D 78 2D 06 68 40 08 24 40 00 00 D3 ... -- CPU_WriteMem(136 bytes @ 0x20000000)  returns 0x88 (0001ms, 0234ms total)
T040C 000:461 JLINK_WriteReg(R0, 0x00000000)  returns 0x00 (0000ms, 0234ms total)
T040C 000:461 JLINK_WriteReg(R1, 0x00B71B00)  returns 0x00 (0000ms, 0234ms total)
T040C 000:461 JLINK_WriteReg(R2, 0x00000002)  returns 0x00 (0001ms, 0235ms total)
T040C 000:462 JLINK_WriteReg(R3, 0x00000000)  returns 0x00 (0000ms, 0235ms total)
T040C 000:462 JLINK_WriteReg(R4, 0x00000000)  returns 0x00 (0000ms, 0235ms total)
T040C 000:462 JLINK_WriteReg(R5, 0x00000000)  returns 0x00 (0000ms, 0235ms total)
T040C 000:462 JLINK_WriteReg(R6, 0x00000000)  returns 0x00 (0000ms, 0235ms total)
T040C 000:462 JLINK_WriteReg(R7, 0x00000000)  returns 0x00 (0000ms, 0235ms total)
T040C 000:462 JLINK_WriteReg(R8, 0x00000000)  returns 0x00 (0000ms, 0235ms total)
T040C 000:462 JLINK_WriteReg(R9, 0x20000084)  returns 0x00 (0000ms, 0235ms total)
T040C 000:462 JLINK_WriteReg(R10, 0x00000000)  returns 0x00 (0000ms, 0235ms total)
T040C 000:462 JLINK_WriteReg(R11, 0x00000000)  returns 0x00 (0000ms, 0235ms total)
T040C 000:462 JLINK_WriteReg(R12, 0x00000000)  returns 0x00 (0000ms, 0235ms total)
T040C 000:462 JLINK_WriteReg(R13 (SP), 0x20000800)  returns 0x00 (0000ms, 0235ms total)
T040C 000:462 JLINK_WriteReg(R14, 0x20000001)  returns 0x00 (0000ms, 0235ms total)
T040C 000:462 JLINK_WriteReg(R15 (PC), 0x20000042)  returns 0x00 (0000ms, 0235ms total)
T040C 000:462 JLINK_WriteReg(XPSR, 0x01000000)  returns 0x00 (0000ms, 0235ms total)
T040C 000:462 JLINK_WriteReg(MSP, 0x20000800)  returns 0x00 (0000ms, 0235ms total)
T040C 000:462 JLINK_WriteReg(PSP, 0x20000800)  returns 0x00 (0000ms, 0235ms total)
T040C 000:462 JLINK_WriteReg(CFBP, 0x00000000)  returns 0x00 (0000ms, 0235ms total)
T040C 000:462 JLINK_SetBPEx(Addr = 0x20000000, Type = 0xFFFFFFF2) -- CPU_ReadMem(4 bytes @ 0x20000000) -- CPU_WriteMem(4 bytes @ 0x20000000) -- CPU_ReadMem(4 bytes @ 0x20000000) -- CPU_WriteMem(4 bytes @ 0x20000000) -- CPU_ReadMem(2 bytes @ 0x20000000)  returns 0x00000004 (0002ms, 0237ms total)
T040C 000:464 JLINK_Go() -- CPU_WriteMem(2 bytes @ 0x20000000) -- CPU_ReadMem(4 bytes @ 0xE0001000) -- CPU_WriteMem(4 bytes @ 0xE0001000) (0003ms, 0240ms total)
T040C 000:467 JLINK_IsHalted() -- CPU_ReadMem(2 bytes @ 0x20000000)  returns TRUE (0003ms, 0243ms total)
T040C 000:470 JLINK_ReadReg(R15 (PC))  returns 0x20000000 (0000ms, 0240ms total)
T040C 000:470 JLINK_ClrBPEx(BPHandle = 0x00000004)  returns 0x00 (0000ms, 0240ms total)
T040C 000:470 JLINK_ReadReg(R0)  returns 0x00000000 (0001ms, 0241ms total)
T040C 000:472 JLINK_WriteMem(0x20000088, 0x0100 Bytes, ...) - Data: E8 12 00 20 49 01 00 00 0D 08 00 00 0F 08 00 00 ... -- CPU_WriteMem(256 bytes @ 0x20000088)  returns 0x100 (0002ms, 0243ms total)
T040C 000:474 JLINK_WriteReg(R0, 0x00000000)  returns 0x00 (0000ms, 0243ms total)
T040C 000:474 JLINK_WriteReg(R1, 0x00000100)  returns 0x00 (0000ms, 0243ms total)
T040C 000:474 JLINK_WriteReg(R2, 0x20000088)  returns 0x00 (0000ms, 0243ms total)
T040C 000:474 JLINK_WriteReg(R3, 0x00000000)  returns 0x00 (0000ms, 0243ms total)
T040C 000:474 JLINK_WriteReg(R4, 0x00000000)  returns 0x00 (0000ms, 0243ms total)
T040C 000:475 JLINK_WriteReg(R5, 0x00000000)  returns 0x00 (0000ms, 0244ms total)
T040C 000:475 JLINK_WriteReg(R6, 0x00000000)  returns 0x00 (0000ms, 0244ms total)
T040C 000:475 JLINK_WriteReg(R7, 0x00000000)  returns 0x00 (0000ms, 0244ms total)
T040C 000:475 JLINK_WriteReg(R8, 0x00000000)  returns 0x00 (0000ms, 0244ms total)
T040C 000:475 JLINK_WriteReg(R9, 0x20000084)  returns 0x00 (0000ms, 0244ms total)
T040C 000:475 JLINK_WriteReg(R10, 0x00000000)  returns 0x00 (0000ms, 0244ms total)
T040C 000:475 JLINK_WriteReg(R11, 0x00000000)  returns 0x00 (0000ms, 0244ms total)
T040C 000:475 JLINK_WriteReg(R12, 0x00000000)  returns 0x00 (0000ms, 0244ms total)
T040C 000:475 JLINK_WriteReg(R13 (SP), 0x20000800)  returns 0x00 (0000ms, 0244ms total)
T040C 000:475 JLINK_WriteReg(R14, 0x20000001)  returns 0x00 (0000ms, 0244ms total)
T040C 000:475 JLINK_WriteReg(R15 (PC), 0x2000006E)  returns 0x00 (0000ms, 0244ms total)
T040C 000:475 JLINK_WriteReg(XPSR, 0x01000000)  returns 0x00 (0000ms, 0244ms total)
T040C 000:475 JLINK_WriteReg(MSP, 0x20000800)  returns 0x00 (0000ms, 0244ms total)
T040C 000:475 JLINK_WriteReg(PSP, 0x20000800)  returns 0x00 (0000ms, 0244ms total)
T040C 000:475 JLINK_WriteReg(CFBP, 0x00000000)  returns 0x00 (0000ms, 0244ms total)
T040C 000:475 JLINK_SetBPEx(Addr = 0x20000000, Type = 0xFFFFFFF2)  returns 0x00000005 (0000ms, 0244ms total)
T040C 000:475 JLINK_Go() -- CPU_ReadMem(4 bytes @ 0xE0001000) -- CPU_WriteMem(4 bytes @ 0xE0001000) (0002ms, 0246ms total)
T040C 000:477 JLINK_IsHalted()  returns FALSE (0001ms, 0247ms total)
T040C 000:561 JLINK_IsHalted() -- CPU_ReadMem(2 bytes @ 0x20000000)  returns TRUE (0003ms, 0249ms total)
T040C 000:564 JLINK_ReadReg(R15 (PC))  returns 0x20000000 (0000ms, 0246ms total)
T040C 000:564 JLINK_ClrBPEx(BPHandle = 0x00000005)  returns 0x00 (0000ms, 0246ms total)
T040C 000:564 JLINK_ReadReg(R0)  returns 0x00000000 (0000ms, 0246ms total)
T040C 000:565 JLINK_WriteMem(0x20000088, 0x0100 Bytes, ...) - Data: 30 C1 00 D5 0B 60 70 47 10 B5 64 29 02 D1 02 F0 ... -- CPU_WriteMem(256 bytes @ 0x20000088)  returns 0x100 (0002ms, 0248ms total)
T040C 000:567 JLINK_WriteReg(R0, 0x00000100)  returns 0x00 (0000ms, 0248ms total)
T040C 000:567 JLINK_WriteReg(R1, 0x00000100)  returns 0x00 (0000ms, 0248ms total)
T040C 000:567 JLINK_WriteReg(R2, 0x20000088)  returns 0x00 (0000ms, 0248ms total)
T040C 000:567 JLINK_WriteReg(R3, 0x00000000)  returns 0x00 (0000ms, 0248ms total)
T040C 000:567 JLINK_WriteReg(R4, 0x00000000)  returns 0x00 (0000ms, 0248ms total)
T040C 000:567 JLINK_WriteReg(R5, 0x00000000)  returns 0x00 (0000ms, 0248ms total)
T040C 000:567 JLINK_WriteReg(R6, 0x00000000)  returns 0x00 (0000ms, 0248ms total)
T040C 000:567 JLINK_WriteReg(R7, 0x00000000)  returns 0x00 (0000ms, 0248ms total)
T040C 000:567 JLINK_WriteReg(R8, 0x00000000)  returns 0x00 (0000ms, 0248ms total)
T040C 000:567 JLINK_WriteReg(R9, 0x20000084)  returns 0x00 (0000ms, 0248ms total)
T040C 000:567 JLINK_WriteReg(R10, 0x00000000)  returns 0x00 (0000ms, 0248ms total)
T040C 000:567 JLINK_WriteReg(R11, 0x00000000)  returns 0x00 (0000ms, 0248ms total)
T040C 000:567 JLINK_WriteReg(R12, 0x00000000)  returns 0x00 (0000ms, 0248ms total)
T040C 000:567 JLINK_WriteReg(R13 (SP), 0x20000800)  returns 0x00 (0000ms, 0248ms total)
T040C 000:567 JLINK_WriteReg(R14, 0x20000001)  returns 0x00 (0000ms, 0248ms total)
T040C 000:567 JLINK_WriteReg(R15 (PC), 0x2000006E)  returns 0x00 (0000ms, 0248ms total)
T040C 000:567 JLINK_WriteReg(XPSR, 0x01000000)  returns 0x00 (0000ms, 0248ms total)
T040C 000:567 JLINK_WriteReg(MSP, 0x20000800)  returns 0x00 (0000ms, 0248ms total)
T040C 000:567 JLINK_WriteReg(PSP, 0x20000800)  returns 0x00 (0000ms, 0248ms total)
T040C 000:567 JLINK_WriteReg(CFBP, 0x00000000)  returns 0x00 (0000ms, 0248ms total)
T040C 000:567 JLINK_SetBPEx(Addr = 0x20000000, Type = 0xFFFFFFF2)  returns 0x00000006 (0000ms, 0248ms total)
T040C 000:567 JLINK_Go() -- CPU_ReadMem(4 bytes @ 0xE0001000) -- CPU_WriteMem(4 bytes @ 0xE0001000) (0003ms, 0251ms total)
T040C 000:570 JLINK_IsHalted()  returns FALSE (0000ms, 0251ms total)
T040C 000:577 JLINK_IsHalted() -- CPU_ReadMem(2 bytes @ 0x20000000)  returns TRUE (0003ms, 0254ms total)
T040C 000:580 JLINK_ReadReg(R15 (PC))  returns 0x20000000 (0000ms, 0251ms total)
T040C 000:580 JLINK_ClrBPEx(BPHandle = 0x00000006)  returns 0x00 (0000ms, 0251ms total)
T040C 000:580 JLINK_ReadReg(R0)  returns 0x00000000 (0000ms, 0251ms total)
T040C 000:581 JLINK_WriteMem(0x20000088, 0x0100 Bytes, ...) - Data: 0F 79 01 2F 0D D0 45 61 4D 79 AD 07 0D D5 9C 00 ... -- CPU_WriteMem(256 bytes @ 0x20000088)  returns 0x100 (0001ms, 0252ms total)
T040C 000:582 JLINK_WriteReg(R0, 0x00000200)  returns 0x00 (0000ms, 0252ms total)
T040C 000:583 JLINK_WriteReg(R1, 0x00000100)  returns 0x00 (0000ms, 0252ms total)
T040C 000:583 JLINK_WriteReg(R2, 0x20000088)  returns 0x00 (0000ms, 0252ms total)
T040C 000:583 JLINK_WriteReg(R3, 0x00000000)  returns 0x00 (0000ms, 0252ms total)
T040C 000:583 JLINK_WriteReg(R4, 0x00000000)  returns 0x00 (0000ms, 0252ms total)
T040C 000:583 JLINK_WriteReg(R5, 0x00000000)  returns 0x00 (0000ms, 0252ms total)
T040C 000:583 JLINK_WriteReg(R6, 0x00000000)  returns 0x00 (0000ms, 0252ms total)
T040C 000:583 JLINK_WriteReg(R7, 0x00000000)  returns 0x00 (0000ms, 0252ms total)
T040C 000:583 JLINK_WriteReg(R8, 0x00000000)  returns 0x00 (0000ms, 0252ms total)
T040C 000:583 JLINK_WriteReg(R9, 0x20000084)  returns 0x00 (0000ms, 0252ms total)
T040C 000:583 JLINK_WriteReg(R10, 0x00000000)  returns 0x00 (0000ms, 0252ms total)
T040C 000:583 JLINK_WriteReg(R11, 0x00000000)  returns 0x00 (0000ms, 0252ms total)
T040C 000:583 JLINK_WriteReg(R12, 0x00000000)  returns 0x00 (0000ms, 0252ms total)
T040C 000:583 JLINK_WriteReg(R13 (SP), 0x20000800)  returns 0x00 (0000ms, 0252ms total)
T040C 000:583 JLINK_WriteReg(R14, 0x20000001)  returns 0x00 (0000ms, 0252ms total)
T040C 000:583 JLINK_WriteReg(R15 (PC), 0x2000006E)  returns 0x00 (0000ms, 0252ms total)
T040C 000:583 JLINK_WriteReg(XPSR, 0x01000000)  returns 0x00 (0000ms, 0252ms total)
T040C 000:583 JLINK_WriteReg(MSP, 0x20000800)  returns 0x00 (0000ms, 0252ms total)
T040C 000:583 JLINK_WriteReg(PSP, 0x20000800)  returns 0x00 (0000ms, 0252ms total)
T040C 000:583 JLINK_WriteReg(CFBP, 0x00000000)  returns 0x00 (0000ms, 0252ms total)
T040C 000:583 JLINK_SetBPEx(Addr = 0x20000000, Type = 0xFFFFFFF2)  returns 0x00000007 (0000ms, 0252ms total)
T040C 000:583 JLINK_Go() -- CPU_ReadMem(4 bytes @ 0xE0001000) -- CPU_WriteMem(4 bytes @ 0xE0001000) (0002ms, 0254ms total)
T040C 000:585 JLINK_IsHalted()  returns FALSE (0001ms, 0255ms total)
T040C 000:593 JLINK_IsHalted() -- CPU_ReadMem(2 bytes @ 0x20000000)  returns TRUE (0003ms, 0257ms total)
T040C 000:596 JLINK_ReadReg(R15 (PC))  returns 0x20000000 (0000ms, 0254ms total)
T040C 000:596 JLINK_ClrBPEx(BPHandle = 0x00000007)  returns 0x00 (0000ms, 0254ms total)
T040C 000:596 JLINK_ReadReg(R0)  returns 0x00000000 (0000ms, 0254ms total)
T040C 000:596 JLINK_WriteMem(0x20000088, 0x0100 Bytes, ...) - Data: 10 BD 10 B5 0B 06 9B 0D 01 24 1B 18 A4 02 1B 19 ... -- CPU_WriteMem(256 bytes @ 0x20000088)  returns 0x100 (0002ms, 0256ms total)
T040C 000:598 JLINK_WriteReg(R0, 0x00000300)  returns 0x00 (0000ms, 0256ms total)
T040C 000:598 JLINK_WriteReg(R1, 0x00000100)  returns 0x00 (0000ms, 0256ms total)
T040C 000:598 JLINK_WriteReg(R2, 0x20000088)  returns 0x00 (0000ms, 0256ms total)
T040C 000:598 JLINK_WriteReg(R3, 0x00000000)  returns 0x00 (0000ms, 0256ms total)
T040C 000:598 JLINK_WriteReg(R4, 0x00000000)  returns 0x00 (0000ms, 0256ms total)
T040C 000:598 JLINK_WriteReg(R5, 0x00000000)  returns 0x00 (0000ms, 0256ms total)
T040C 000:598 JLINK_WriteReg(R6, 0x00000000)  returns 0x00 (0000ms, 0256ms total)
T040C 000:598 JLINK_WriteReg(R7, 0x00000000)  returns 0x00 (0000ms, 0256ms total)
T040C 000:598 JLINK_WriteReg(R8, 0x00000000)  returns 0x00 (0000ms, 0256ms total)
T040C 000:598 JLINK_WriteReg(R9, 0x20000084)  returns 0x00 (0000ms, 0256ms total)
T040C 000:598 JLINK_WriteReg(R10, 0x00000000)  returns 0x00 (0000ms, 0256ms total)
T040C 000:598 JLINK_WriteReg(R11, 0x00000000)  returns 0x00 (0000ms, 0256ms total)
T040C 000:598 JLINK_WriteReg(R12, 0x00000000)  returns 0x00 (0000ms, 0256ms total)
T040C 000:598 JLINK_WriteReg(R13 (SP), 0x20000800)  returns 0x00 (0000ms, 0256ms total)
T040C 000:598 JLINK_WriteReg(R14, 0x20000001)  returns 0x00 (0000ms, 0256ms total)
T040C 000:598 JLINK_WriteReg(R15 (PC), 0x2000006E)  returns 0x00 (0000ms, 0256ms total)
T040C 000:598 JLINK_WriteReg(XPSR, 0x01000000)  returns 0x00 (0000ms, 0256ms total)
T040C 000:598 JLINK_WriteReg(MSP, 0x20000800)  returns 0x00 (0000ms, 0256ms total)
T040C 000:598 JLINK_WriteReg(PSP, 0x20000800)  returns 0x00 (0000ms, 0256ms total)
T040C 000:598 JLINK_WriteReg(CFBP, 0x00000000)  returns 0x00 (0000ms, 0256ms total)
T040C 000:598 JLINK_SetBPEx(Addr = 0x20000000, Type = 0xFFFFFFF2)  returns 0x00000008 (0000ms, 0256ms total)
T040C 000:598 JLINK_Go() -- CPU_ReadMem(4 bytes @ 0xE0001000) -- CPU_WriteMem(4 bytes @ 0xE0001000) (0002ms, 0258ms total)
T040C 000:600 JLINK_IsHalted()  returns FALSE (0001ms, 0259ms total)
T040C 000:605 JLINK_IsHalted() -- CPU_ReadMem(2 bytes @ 0x20000000)  returns TRUE (0003ms, 0261ms total)
T040C 000:608 JLINK_ReadReg(R15 (PC))  returns 0x20000000 (0000ms, 0258ms total)
T040C 000:608 JLINK_ClrBPEx(BPHandle = 0x00000008)  returns 0x00 (0000ms, 0258ms total)
T040C 000:608 JLINK_ReadReg(R0)  returns 0x00000000 (0000ms, 0258ms total)
T040C 000:608 JLINK_WriteMem(0x20000088, 0x0100 Bytes, ...) - Data: 84 42 01 D1 01 20 00 E0 02 20 32 46 29 46 FF F7 ... -- CPU_WriteMem(256 bytes @ 0x20000088)  returns 0x100 (0002ms, 0260ms total)
T040C 000:610 JLINK_WriteReg(R0, 0x00000400)  returns 0x00 (0000ms, 0260ms total)
T040C 000:610 JLINK_WriteReg(R1, 0x00000100)  returns 0x00 (0000ms, 0260ms total)
T040C 000:610 JLINK_WriteReg(R2, 0x20000088)  returns 0x00 (0000ms, 0260ms total)
T040C 000:610 JLINK_WriteReg(R3, 0x00000000)  returns 0x00 (0000ms, 0260ms total)
T040C 000:610 JLINK_WriteReg(R4, 0x00000000)  returns 0x00 (0000ms, 0260ms total)
T040C 000:610 JLINK_WriteReg(R5, 0x00000000)  returns 0x00 (0000ms, 0260ms total)
T040C 000:610 JLINK_WriteReg(R6, 0x00000000)  returns 0x00 (0000ms, 0260ms total)
T040C 000:610 JLINK_WriteReg(R7, 0x00000000)  returns 0x00 (0000ms, 0260ms total)
T040C 000:610 JLINK_WriteReg(R8, 0x00000000)  returns 0x00 (0000ms, 0260ms total)
T040C 000:610 JLINK_WriteReg(R9, 0x20000084)  returns 0x00 (0000ms, 0260ms total)
T040C 000:610 JLINK_WriteReg(R10, 0x00000000)  returns 0x00 (0000ms, 0260ms total)
T040C 000:610 JLINK_WriteReg(R11, 0x00000000)  returns 0x00 (0000ms, 0260ms total)
T040C 000:610 JLINK_WriteReg(R12, 0x00000000)  returns 0x00 (0000ms, 0260ms total)
T040C 000:610 JLINK_WriteReg(R13 (SP), 0x20000800)  returns 0x00 (0000ms, 0260ms total)
T040C 000:610 JLINK_WriteReg(R14, 0x20000001)  returns 0x00 (0000ms, 0260ms total)
T040C 000:610 JLINK_WriteReg(R15 (PC), 0x2000006E)  returns 0x00 (0000ms, 0260ms total)
T040C 000:610 JLINK_WriteReg(XPSR, 0x01000000)  returns 0x00 (0000ms, 0260ms total)
T040C 000:610 JLINK_WriteReg(MSP, 0x20000800)  returns 0x00 (0000ms, 0260ms total)
T040C 000:610 JLINK_WriteReg(PSP, 0x20000800)  returns 0x00 (0000ms, 0260ms total)
T040C 000:610 JLINK_WriteReg(CFBP, 0x00000000)  returns 0x00 (0000ms, 0260ms total)
T040C 000:610 JLINK_SetBPEx(Addr = 0x20000000, Type = 0xFFFFFFF2)  returns 0x00000009 (0000ms, 0260ms total)
T040C 000:610 JLINK_Go() -- CPU_ReadMem(4 bytes @ 0xE0001000) -- CPU_WriteMem(4 bytes @ 0xE0001000) (0002ms, 0262ms total)
T040C 000:612 JLINK_IsHalted()  returns FALSE (0001ms, 0263ms total)
T040C 000:616 JLINK_IsHalted() -- CPU_ReadMem(2 bytes @ 0x20000000)  returns TRUE (0003ms, 0265ms total)
T040C 000:619 JLINK_ReadReg(R15 (PC))  returns 0x20000000 (0000ms, 0262ms total)
T040C 000:619 JLINK_ClrBPEx(BPHandle = 0x00000009)  returns 0x00 (0000ms, 0262ms total)
T040C 000:619 JLINK_ReadReg(R0)  returns 0x00000000 (0000ms, 0262ms total)
T040C 000:619 JLINK_WriteMem(0x20000088, 0x0100 Bytes, ...) - Data: 06 21 02 F0 D1 FE 02 F0 AD FD 00 22 6C 4B 02 F0 ... -- CPU_WriteMem(256 bytes @ 0x20000088)  returns 0x100 (0002ms, 0264ms total)
T040C 000:621 JLINK_WriteReg(R0, 0x00000500)  returns 0x00 (0000ms, 0264ms total)
T040C 000:621 JLINK_WriteReg(R1, 0x00000100)  returns 0x00 (0000ms, 0264ms total)
T040C 000:621 JLINK_WriteReg(R2, 0x20000088)  returns 0x00 (0000ms, 0264ms total)
T040C 000:621 JLINK_WriteReg(R3, 0x00000000)  returns 0x00 (0000ms, 0264ms total)
T040C 000:621 JLINK_WriteReg(R4, 0x00000000)  returns 0x00 (0000ms, 0264ms total)
T040C 000:621 JLINK_WriteReg(R5, 0x00000000)  returns 0x00 (0000ms, 0264ms total)
T040C 000:621 JLINK_WriteReg(R6, 0x00000000)  returns 0x00 (0000ms, 0264ms total)
T040C 000:621 JLINK_WriteReg(R7, 0x00000000)  returns 0x00 (0000ms, 0264ms total)
T040C 000:621 JLINK_WriteReg(R8, 0x00000000)  returns 0x00 (0000ms, 0264ms total)
T040C 000:621 JLINK_WriteReg(R9, 0x20000084)  returns 0x00 (0000ms, 0264ms total)
T040C 000:621 JLINK_WriteReg(R10, 0x00000000)  returns 0x00 (0000ms, 0264ms total)
T040C 000:621 JLINK_WriteReg(R11, 0x00000000)  returns 0x00 (0000ms, 0264ms total)
T040C 000:621 JLINK_WriteReg(R12, 0x00000000)  returns 0x00 (0000ms, 0264ms total)
T040C 000:621 JLINK_WriteReg(R13 (SP), 0x20000800)  returns 0x00 (0000ms, 0264ms total)
T040C 000:621 JLINK_WriteReg(R14, 0x20000001)  returns 0x00 (0000ms, 0264ms total)
T040C 000:621 JLINK_WriteReg(R15 (PC), 0x2000006E)  returns 0x00 (0000ms, 0264ms total)
T040C 000:621 JLINK_WriteReg(XPSR, 0x01000000)  returns 0x00 (0000ms, 0264ms total)
T040C 000:621 JLINK_WriteReg(MSP, 0x20000800)  returns 0x00 (0000ms, 0264ms total)
T040C 000:621 JLINK_WriteReg(PSP, 0x20000800)  returns 0x00 (0000ms, 0264ms total)
T040C 000:621 JLINK_WriteReg(CFBP, 0x00000000)  returns 0x00 (0000ms, 0264ms total)
T040C 000:621 JLINK_SetBPEx(Addr = 0x20000000, Type = 0xFFFFFFF2)  returns 0x0000000A (0000ms, 0264ms total)
T040C 000:621 JLINK_Go() -- CPU_ReadMem(4 bytes @ 0xE0001000) -- CPU_WriteMem(4 bytes @ 0xE0001000) (0002ms, 0266ms total)
T040C 000:623 JLINK_IsHalted()  returns FALSE (0001ms, 0267ms total)
T040C 000:629 JLINK_IsHalted() -- CPU_ReadMem(2 bytes @ 0x20000000)  returns TRUE (0003ms, 0269ms total)
T040C 000:632 JLINK_ReadReg(R15 (PC))  returns 0x20000000 (0000ms, 0266ms total)
T040C 000:632 JLINK_ClrBPEx(BPHandle = 0x0000000A)  returns 0x00 (0000ms, 0266ms total)
T040C 000:632 JLINK_ReadReg(R0)  returns 0x00000000 (0000ms, 0266ms total)
T040C 000:632 JLINK_WriteMem(0x20000088, 0x0100 Bytes, ...) - Data: 80 B2 70 47 31 4A 01 46 52 68 00 20 0A 42 00 D0 ... -- CPU_WriteMem(256 bytes @ 0x20000088)  returns 0x100 (0002ms, 0268ms total)
T040C 000:634 JLINK_WriteReg(R0, 0x00000600)  returns 0x00 (0000ms, 0268ms total)
T040C 000:634 JLINK_WriteReg(R1, 0x00000100)  returns 0x00 (0000ms, 0268ms total)
T040C 000:634 JLINK_WriteReg(R2, 0x20000088)  returns 0x00 (0000ms, 0268ms total)
T040C 000:634 JLINK_WriteReg(R3, 0x00000000)  returns 0x00 (0000ms, 0268ms total)
T040C 000:634 JLINK_WriteReg(R4, 0x00000000)  returns 0x00 (0000ms, 0268ms total)
T040C 000:634 JLINK_WriteReg(R5, 0x00000000)  returns 0x00 (0000ms, 0268ms total)
T040C 000:634 JLINK_WriteReg(R6, 0x00000000)  returns 0x00 (0000ms, 0268ms total)
T040C 000:634 JLINK_WriteReg(R7, 0x00000000)  returns 0x00 (0000ms, 0268ms total)
T040C 000:634 JLINK_WriteReg(R8, 0x00000000)  returns 0x00 (0000ms, 0268ms total)
T040C 000:634 JLINK_WriteReg(R9, 0x20000084)  returns 0x00 (0000ms, 0268ms total)
T040C 000:634 JLINK_WriteReg(R10, 0x00000000)  returns 0x00 (0000ms, 0268ms total)
T040C 000:634 JLINK_WriteReg(R11, 0x00000000)  returns 0x00 (0000ms, 0268ms total)
T040C 000:634 JLINK_WriteReg(R12, 0x00000000)  returns 0x00 (0000ms, 0268ms total)
T040C 000:634 JLINK_WriteReg(R13 (SP), 0x20000800)  returns 0x00 (0000ms, 0268ms total)
T040C 000:634 JLINK_WriteReg(R14, 0x20000001)  returns 0x00 (0000ms, 0268ms total)
T040C 000:634 JLINK_WriteReg(R15 (PC), 0x2000006E)  returns 0x00 (0000ms, 0268ms total)
T040C 000:634 JLINK_WriteReg(XPSR, 0x01000000)  returns 0x00 (0000ms, 0268ms total)
T040C 000:634 JLINK_WriteReg(MSP, 0x20000800)  returns 0x00 (0000ms, 0268ms total)
T040C 000:634 JLINK_WriteReg(PSP, 0x20000800)  returns 0x00 (0000ms, 0268ms total)
T040C 000:634 JLINK_WriteReg(CFBP, 0x00000000)  returns 0x00 (0000ms, 0268ms total)
T040C 000:634 JLINK_SetBPEx(Addr = 0x20000000, Type = 0xFFFFFFF2)  returns 0x0000000B (0000ms, 0268ms total)
T040C 000:634 JLINK_Go() -- CPU_ReadMem(4 bytes @ 0xE0001000) -- CPU_WriteMem(4 bytes @ 0xE0001000) (0002ms, 0270ms total)
T040C 000:636 JLINK_IsHalted()  returns FALSE (0001ms, 0271ms total)
T040C 000:639 JLINK_IsHalted() -- CPU_ReadMem(2 bytes @ 0x20000000)  returns TRUE (0003ms, 0273ms total)
T040C 000:642 JLINK_ReadReg(R15 (PC))  returns 0x20000000 (0000ms, 0270ms total)
T040C 000:642 JLINK_ClrBPEx(BPHandle = 0x0000000B)  returns 0x00 (0000ms, 0270ms total)
T040C 000:642 JLINK_ReadReg(R0)  returns 0x00000000 (0000ms, 0270ms total)
T040C 000:642 JLINK_WriteMem(0x20000088, 0x0100 Bytes, ...) - Data: A4 B2 9C 42 F7 D3 70 BD 70 B5 14 00 0F D0 1A 4A ... -- CPU_WriteMem(256 bytes @ 0x20000088)  returns 0x100 (0002ms, 0272ms total)
T040C 000:644 JLINK_WriteReg(R0, 0x00000700)  returns 0x00 (0000ms, 0272ms total)
T040C 000:644 JLINK_WriteReg(R1, 0x00000100)  returns 0x00 (0000ms, 0272ms total)
T040C 000:644 JLINK_WriteReg(R2, 0x20000088)  returns 0x00 (0000ms, 0272ms total)
T040C 000:644 JLINK_WriteReg(R3, 0x00000000)  returns 0x00 (0000ms, 0272ms total)
T040C 000:644 JLINK_WriteReg(R4, 0x00000000)  returns 0x00 (0000ms, 0272ms total)
T040C 000:644 JLINK_WriteReg(R5, 0x00000000)  returns 0x00 (0000ms, 0272ms total)
T040C 000:644 JLINK_WriteReg(R6, 0x00000000)  returns 0x00 (0000ms, 0272ms total)
T040C 000:644 JLINK_WriteReg(R7, 0x00000000)  returns 0x00 (0000ms, 0272ms total)
T040C 000:644 JLINK_WriteReg(R8, 0x00000000)  returns 0x00 (0000ms, 0272ms total)
T040C 000:644 JLINK_WriteReg(R9, 0x20000084)  returns 0x00 (0000ms, 0272ms total)
T040C 000:645 JLINK_WriteReg(R10, 0x00000000)  returns 0x00 (0000ms, 0273ms total)
T040C 000:645 JLINK_WriteReg(R11, 0x00000000)  returns 0x00 (0000ms, 0273ms total)
T040C 000:645 JLINK_WriteReg(R12, 0x00000000)  returns 0x00 (0000ms, 0273ms total)
T040C 000:645 JLINK_WriteReg(R13 (SP), 0x20000800)  returns 0x00 (0000ms, 0273ms total)
T040C 000:645 JLINK_WriteReg(R14, 0x20000001)  returns 0x00 (0000ms, 0273ms total)
T040C 000:645 JLINK_WriteReg(R15 (PC), 0x2000006E)  returns 0x00 (0000ms, 0273ms total)
T040C 000:645 JLINK_WriteReg(XPSR, 0x01000000)  returns 0x00 (0000ms, 0273ms total)
T040C 000:645 JLINK_WriteReg(MSP, 0x20000800)  returns 0x00 (0000ms, 0273ms total)
T040C 000:645 JLINK_WriteReg(PSP, 0x20000800)  returns 0x00 (0000ms, 0273ms total)
T040C 000:645 JLINK_WriteReg(CFBP, 0x00000000)  returns 0x00 (0000ms, 0273ms total)
T040C 000:645 JLINK_SetBPEx(Addr = 0x20000000, Type = 0xFFFFFFF2)  returns 0x0000000C (0000ms, 0273ms total)
T040C 000:645 JLINK_Go() -- CPU_ReadMem(4 bytes @ 0xE0001000) -- CPU_WriteMem(4 bytes @ 0xE0001000) (0002ms, 0275ms total)
T040C 000:647 JLINK_IsHalted()  returns FALSE (0000ms, 0275ms total)
T040C 000:652 JLINK_IsHalted() -- CPU_ReadMem(2 bytes @ 0x20000000)  returns TRUE (0004ms, 0279ms total)
T040C 000:656 JLINK_ReadReg(R15 (PC))  returns 0x20000000 (0000ms, 0275ms total)
T040C 000:656 JLINK_ClrBPEx(BPHandle = 0x0000000C)  returns 0x00 (0000ms, 0275ms total)
T040C 000:656 JLINK_ReadReg(R0)  returns 0x00000000 (0000ms, 0275ms total)
T040C 000:657 JLINK_WriteMem(0x20000088, 0x0100 Bytes, ...) - Data: 10 B5 C0 B2 FF F7 3F FF 10 BD FE E7 70 47 70 47 ... -- CPU_WriteMem(256 bytes @ 0x20000088)  returns 0x100 (0002ms, 0277ms total)
T040C 000:659 JLINK_WriteReg(R0, 0x00000800)  returns 0x00 (0000ms, 0277ms total)
T040C 000:659 JLINK_WriteReg(R1, 0x00000100)  returns 0x00 (0000ms, 0277ms total)
T040C 000:659 JLINK_WriteReg(R2, 0x20000088)  returns 0x00 (0000ms, 0277ms total)
T040C 000:659 JLINK_WriteReg(R3, 0x00000000)  returns 0x00 (0000ms, 0277ms total)
T040C 000:659 JLINK_WriteReg(R4, 0x00000000)  returns 0x00 (0000ms, 0277ms total)
T040C 000:659 JLINK_WriteReg(R5, 0x00000000)  returns 0x00 (0000ms, 0277ms total)
T040C 000:659 JLINK_WriteReg(R6, 0x00000000)  returns 0x00 (0000ms, 0277ms total)
T040C 000:659 JLINK_WriteReg(R7, 0x00000000)  returns 0x00 (0000ms, 0277ms total)
T040C 000:659 JLINK_WriteReg(R8, 0x00000000)  returns 0x00 (0000ms, 0277ms total)
T040C 000:659 JLINK_WriteReg(R9, 0x20000084)  returns 0x00 (0000ms, 0277ms total)
T040C 000:659 JLINK_WriteReg(R10, 0x00000000)  returns 0x00 (0000ms, 0277ms total)
T040C 000:659 JLINK_WriteReg(R11, 0x00000000)  returns 0x00 (0000ms, 0277ms total)
T040C 000:659 JLINK_WriteReg(R12, 0x00000000)  returns 0x00 (0000ms, 0277ms total)
T040C 000:659 JLINK_WriteReg(R13 (SP), 0x20000800)  returns 0x00 (0000ms, 0277ms total)
T040C 000:659 JLINK_WriteReg(R14, 0x20000001)  returns 0x00 (0000ms, 0277ms total)
T040C 000:659 JLINK_WriteReg(R15 (PC), 0x2000006E)  returns 0x00 (0000ms, 0277ms total)
T040C 000:659 JLINK_WriteReg(XPSR, 0x01000000)  returns 0x00 (0000ms, 0277ms total)
T040C 000:659 JLINK_WriteReg(MSP, 0x20000800)  returns 0x00 (0000ms, 0277ms total)
T040C 000:659 JLINK_WriteReg(PSP, 0x20000800)  returns 0x00 (0000ms, 0277ms total)
T040C 000:659 JLINK_WriteReg(CFBP, 0x00000000)  returns 0x00 (0000ms, 0277ms total)
T040C 000:659 JLINK_SetBPEx(Addr = 0x20000000, Type = 0xFFFFFFF2)  returns 0x0000000D (0000ms, 0277ms total)
T040C 000:659 JLINK_Go() -- CPU_ReadMem(4 bytes @ 0xE0001000) -- CPU_WriteMem(4 bytes @ 0xE0001000) (0002ms, 0279ms total)
T040C 000:661 JLINK_IsHalted()  returns FALSE (0001ms, 0280ms total)
T040C 000:666 JLINK_IsHalted() -- CPU_ReadMem(2 bytes @ 0x20000000)  returns TRUE (0003ms, 0282ms total)
T040C 000:669 JLINK_ReadReg(R15 (PC))  returns 0x20000000 (0000ms, 0279ms total)
T040C 000:669 JLINK_ClrBPEx(BPHandle = 0x0000000D)  returns 0x00 (0000ms, 0279ms total)
T040C 000:669 JLINK_ReadReg(R0)  returns 0x00000000 (0000ms, 0279ms total)
T040C 000:669 JLINK_WriteMem(0x20000088, 0x0100 Bytes, ...) - Data: 0D 78 2A 46 4D 78 2D 02 2A 43 8D 78 C9 78 2D 04 ... -- CPU_WriteMem(256 bytes @ 0x20000088)  returns 0x100 (0002ms, 0281ms total)
T040C 000:671 JLINK_WriteReg(R0, 0x00000900)  returns 0x00 (0000ms, 0281ms total)
T040C 000:671 JLINK_WriteReg(R1, 0x00000100)  returns 0x00 (0000ms, 0281ms total)
T040C 000:671 JLINK_WriteReg(R2, 0x20000088)  returns 0x00 (0000ms, 0281ms total)
T040C 000:671 JLINK_WriteReg(R3, 0x00000000)  returns 0x00 (0000ms, 0281ms total)
T040C 000:671 JLINK_WriteReg(R4, 0x00000000)  returns 0x00 (0000ms, 0281ms total)
T040C 000:671 JLINK_WriteReg(R5, 0x00000000)  returns 0x00 (0000ms, 0281ms total)
T040C 000:671 JLINK_WriteReg(R6, 0x00000000)  returns 0x00 (0000ms, 0281ms total)
T040C 000:671 JLINK_WriteReg(R7, 0x00000000)  returns 0x00 (0000ms, 0281ms total)
T040C 000:671 JLINK_WriteReg(R8, 0x00000000)  returns 0x00 (0000ms, 0281ms total)
T040C 000:671 JLINK_WriteReg(R9, 0x20000084)  returns 0x00 (0000ms, 0281ms total)
T040C 000:671 JLINK_WriteReg(R10, 0x00000000)  returns 0x00 (0000ms, 0281ms total)
T040C 000:671 JLINK_WriteReg(R11, 0x00000000)  returns 0x00 (0000ms, 0281ms total)
T040C 000:671 JLINK_WriteReg(R12, 0x00000000)  returns 0x00 (0000ms, 0281ms total)
T040C 000:671 JLINK_WriteReg(R13 (SP), 0x20000800)  returns 0x00 (0000ms, 0281ms total)
T040C 000:671 JLINK_WriteReg(R14, 0x20000001)  returns 0x00 (0000ms, 0281ms total)
T040C 000:671 JLINK_WriteReg(R15 (PC), 0x2000006E)  returns 0x00 (0000ms, 0281ms total)
T040C 000:671 JLINK_WriteReg(XPSR, 0x01000000)  returns 0x00 (0000ms, 0281ms total)
T040C 000:671 JLINK_WriteReg(MSP, 0x20000800)  returns 0x00 (0000ms, 0281ms total)
T040C 000:671 JLINK_WriteReg(PSP, 0x20000800)  returns 0x00 (0000ms, 0281ms total)
T040C 000:671 JLINK_WriteReg(CFBP, 0x00000000)  returns 0x00 (0000ms, 0281ms total)
T040C 000:671 JLINK_SetBPEx(Addr = 0x20000000, Type = 0xFFFFFFF2)  returns 0x0000000E (0000ms, 0281ms total)
T040C 000:671 JLINK_Go() -- CPU_ReadMem(4 bytes @ 0xE0001000) -- CPU_WriteMem(4 bytes @ 0xE0001000) (0003ms, 0284ms total)
T040C 000:674 JLINK_IsHalted()  returns FALSE (0000ms, 0284ms total)
T040C 000:681 JLINK_IsHalted() -- CPU_ReadMem(2 bytes @ 0x20000000)  returns TRUE (0003ms, 0287ms total)
T040C 000:684 JLINK_ReadReg(R15 (PC))  returns 0x20000000 (0000ms, 0284ms total)
T040C 000:684 JLINK_ClrBPEx(BPHandle = 0x0000000E)  returns 0x00 (0000ms, 0284ms total)
T040C 000:684 JLINK_ReadReg(R0)  returns 0x00000000 (0000ms, 0284ms total)
T040C 000:684 JLINK_WriteMem(0x20000088, 0x0100 Bytes, ...) - Data: 08 21 46 18 31 78 0A 46 71 78 09 02 0A 43 B1 78 ... -- CPU_WriteMem(256 bytes @ 0x20000088)  returns 0x100 (0002ms, 0286ms total)
T040C 000:686 JLINK_WriteReg(R0, 0x00000A00)  returns 0x00 (0000ms, 0286ms total)
T040C 000:686 JLINK_WriteReg(R1, 0x00000100)  returns 0x00 (0000ms, 0286ms total)
T040C 000:686 JLINK_WriteReg(R2, 0x20000088)  returns 0x00 (0000ms, 0286ms total)
T040C 000:686 JLINK_WriteReg(R3, 0x00000000)  returns 0x00 (0000ms, 0286ms total)
T040C 000:686 JLINK_WriteReg(R4, 0x00000000)  returns 0x00 (0000ms, 0286ms total)
T040C 000:686 JLINK_WriteReg(R5, 0x00000000)  returns 0x00 (0000ms, 0286ms total)
T040C 000:686 JLINK_WriteReg(R6, 0x00000000)  returns 0x00 (0000ms, 0286ms total)
T040C 000:686 JLINK_WriteReg(R7, 0x00000000)  returns 0x00 (0000ms, 0286ms total)
T040C 000:686 JLINK_WriteReg(R8, 0x00000000)  returns 0x00 (0000ms, 0286ms total)
T040C 000:686 JLINK_WriteReg(R9, 0x20000084)  returns 0x00 (0000ms, 0286ms total)
T040C 000:686 JLINK_WriteReg(R10, 0x00000000)  returns 0x00 (0000ms, 0286ms total)
T040C 000:686 JLINK_WriteReg(R11, 0x00000000)  returns 0x00 (0000ms, 0286ms total)
T040C 000:686 JLINK_WriteReg(R12, 0x00000000)  returns 0x00 (0000ms, 0286ms total)
T040C 000:686 JLINK_WriteReg(R13 (SP), 0x20000800)  returns 0x00 (0000ms, 0286ms total)
T040C 000:686 JLINK_WriteReg(R14, 0x20000001)  returns 0x00 (0000ms, 0286ms total)
T040C 000:686 JLINK_WriteReg(R15 (PC), 0x2000006E)  returns 0x00 (0000ms, 0286ms total)
T040C 000:686 JLINK_WriteReg(XPSR, 0x01000000)  returns 0x00 (0000ms, 0286ms total)
T040C 000:686 JLINK_WriteReg(MSP, 0x20000800)  returns 0x00 (0000ms, 0286ms total)
T040C 000:686 JLINK_WriteReg(PSP, 0x20000800)  returns 0x00 (0000ms, 0286ms total)
T040C 000:686 JLINK_WriteReg(CFBP, 0x00000000)  returns 0x00 (0000ms, 0286ms total)
T040C 000:686 JLINK_SetBPEx(Addr = 0x20000000, Type = 0xFFFFFFF2)  returns 0x0000000F (0000ms, 0286ms total)
T040C 000:686 JLINK_Go() -- CPU_ReadMem(4 bytes @ 0xE0001000) -- CPU_WriteMem(4 bytes @ 0xE0001000) (0002ms, 0288ms total)
T040C 000:688 JLINK_IsHalted()  returns FALSE (0001ms, 0289ms total)
T040C 000:696 JLINK_IsHalted() -- CPU_ReadMem(2 bytes @ 0x20000000)  returns TRUE (0003ms, 0291ms total)
T040C 000:699 JLINK_ReadReg(R15 (PC))  returns 0x20000000 (0000ms, 0288ms total)
T040C 000:699 JLINK_ClrBPEx(BPHandle = 0x0000000F)  returns 0x00 (0000ms, 0288ms total)
T040C 000:699 JLINK_ReadReg(R0)  returns 0x00000000 (0000ms, 0288ms total)
T040C 000:699 JLINK_WriteMem(0x20000088, 0x0100 Bytes, ...) - Data: 64 48 0A 30 FF F7 E4 FD 69 46 88 71 04 46 61 48 ... -- CPU_WriteMem(256 bytes @ 0x20000088)  returns 0x100 (0002ms, 0290ms total)
T040C 000:701 JLINK_WriteReg(R0, 0x00000B00)  returns 0x00 (0000ms, 0290ms total)
T040C 000:701 JLINK_WriteReg(R1, 0x00000100)  returns 0x00 (0000ms, 0290ms total)
T040C 000:701 JLINK_WriteReg(R2, 0x20000088)  returns 0x00 (0000ms, 0290ms total)
T040C 000:701 JLINK_WriteReg(R3, 0x00000000)  returns 0x00 (0000ms, 0290ms total)
T040C 000:701 JLINK_WriteReg(R4, 0x00000000)  returns 0x00 (0000ms, 0290ms total)
T040C 000:701 JLINK_WriteReg(R5, 0x00000000)  returns 0x00 (0000ms, 0290ms total)
T040C 000:701 JLINK_WriteReg(R6, 0x00000000)  returns 0x00 (0000ms, 0290ms total)
T040C 000:701 JLINK_WriteReg(R7, 0x00000000)  returns 0x00 (0000ms, 0290ms total)
T040C 000:701 JLINK_WriteReg(R8, 0x00000000)  returns 0x00 (0000ms, 0290ms total)
T040C 000:701 JLINK_WriteReg(R9, 0x20000084)  returns 0x00 (0000ms, 0290ms total)
T040C 000:701 JLINK_WriteReg(R10, 0x00000000)  returns 0x00 (0000ms, 0290ms total)
T040C 000:701 JLINK_WriteReg(R11, 0x00000000)  returns 0x00 (0000ms, 0290ms total)
T040C 000:701 JLINK_WriteReg(R12, 0x00000000)  returns 0x00 (0000ms, 0290ms total)
T040C 000:701 JLINK_WriteReg(R13 (SP), 0x20000800)  returns 0x00 (0000ms, 0290ms total)
T040C 000:701 JLINK_WriteReg(R14, 0x20000001)  returns 0x00 (0000ms, 0290ms total)
T040C 000:701 JLINK_WriteReg(R15 (PC), 0x2000006E)  returns 0x00 (0000ms, 0290ms total)
T040C 000:701 JLINK_WriteReg(XPSR, 0x01000000)  returns 0x00 (0000ms, 0290ms total)
T040C 000:701 JLINK_WriteReg(MSP, 0x20000800)  returns 0x00 (0000ms, 0290ms total)
T040C 000:701 JLINK_WriteReg(PSP, 0x20000800)  returns 0x00 (0000ms, 0290ms total)
T040C 000:701 JLINK_WriteReg(CFBP, 0x00000000)  returns 0x00 (0000ms, 0290ms total)
T040C 000:701 JLINK_SetBPEx(Addr = 0x20000000, Type = 0xFFFFFFF2)  returns 0x00000010 (0000ms, 0290ms total)
T040C 000:701 JLINK_Go() -- CPU_ReadMem(4 bytes @ 0xE0001000) -- CPU_WriteMem(4 bytes @ 0xE0001000) (0002ms, 0292ms total)
T040C 000:704 JLINK_IsHalted()  returns FALSE (0000ms, 0292ms total)
T040C 000:707 JLINK_IsHalted() -- CPU_ReadMem(2 bytes @ 0x20000000)  returns TRUE (0003ms, 0295ms total)
T040C 000:710 JLINK_ReadReg(R15 (PC))  returns 0x20000000 (0000ms, 0292ms total)
T040C 000:710 JLINK_ClrBPEx(BPHandle = 0x00000010)  returns 0x00 (0000ms, 0292ms total)
T040C 000:710 JLINK_ReadReg(R0)  returns 0x00000000 (0000ms, 0292ms total)
T040C 000:711 JLINK_WriteMem(0x20000088, 0x0100 Bytes, ...) - Data: 04 99 01 F0 2F FE 00 20 02 90 15 48 3F A1 14 30 ... -- CPU_WriteMem(256 bytes @ 0x20000088)  returns 0x100 (0002ms, 0294ms total)
T040C 000:713 JLINK_WriteReg(R0, 0x00000C00)  returns 0x00 (0000ms, 0294ms total)
T040C 000:713 JLINK_WriteReg(R1, 0x00000100)  returns 0x00 (0000ms, 0294ms total)
T040C 000:713 JLINK_WriteReg(R2, 0x20000088)  returns 0x00 (0000ms, 0294ms total)
T040C 000:713 JLINK_WriteReg(R3, 0x00000000)  returns 0x00 (0000ms, 0294ms total)
T040C 000:713 JLINK_WriteReg(R4, 0x00000000)  returns 0x00 (0000ms, 0294ms total)
T040C 000:713 JLINK_WriteReg(R5, 0x00000000)  returns 0x00 (0000ms, 0294ms total)
T040C 000:713 JLINK_WriteReg(R6, 0x00000000)  returns 0x00 (0000ms, 0294ms total)
T040C 000:713 JLINK_WriteReg(R7, 0x00000000)  returns 0x00 (0000ms, 0294ms total)
T040C 000:713 JLINK_WriteReg(R8, 0x00000000)  returns 0x00 (0000ms, 0294ms total)
T040C 000:713 JLINK_WriteReg(R9, 0x20000084)  returns 0x00 (0000ms, 0294ms total)
T040C 000:713 JLINK_WriteReg(R10, 0x00000000)  returns 0x00 (0000ms, 0294ms total)
T040C 000:713 JLINK_WriteReg(R11, 0x00000000)  returns 0x00 (0000ms, 0294ms total)
T040C 000:713 JLINK_WriteReg(R12, 0x00000000)  returns 0x00 (0000ms, 0294ms total)
T040C 000:713 JLINK_WriteReg(R13 (SP), 0x20000800)  returns 0x00 (0000ms, 0294ms total)
T040C 000:713 JLINK_WriteReg(R14, 0x20000001)  returns 0x00 (0000ms, 0294ms total)
T040C 000:713 JLINK_WriteReg(R15 (PC), 0x2000006E)  returns 0x00 (0000ms, 0294ms total)
T040C 000:713 JLINK_WriteReg(XPSR, 0x01000000)  returns 0x00 (0000ms, 0294ms total)
T040C 000:713 JLINK_WriteReg(MSP, 0x20000800)  returns 0x00 (0000ms, 0294ms total)
T040C 000:713 JLINK_WriteReg(PSP, 0x20000800)  returns 0x00 (0000ms, 0294ms total)
T040C 000:713 JLINK_WriteReg(CFBP, 0x00000000)  returns 0x00 (0000ms, 0294ms total)
T040C 000:713 JLINK_SetBPEx(Addr = 0x20000000, Type = 0xFFFFFFF2)  returns 0x00000011 (0000ms, 0294ms total)
T040C 000:713 JLINK_Go() -- CPU_ReadMem(4 bytes @ 0xE0001000) -- CPU_WriteMem(4 bytes @ 0xE0001000) (0002ms, 0296ms total)
